#  HZ   S   RI   R     50.00 
! Rohde & Schwarz Vector Network Analyzer 
! Rohde-Schwarz,ZNB20-2Port,1311601062102243,3.20
! Created: UTC 10/31/2022, 10:12:04 AM
! freq[Hz]                re:S11                  im:S11                  re:S21                  im:S21                  re:S12                  im:S12                  re:S22                  im:S22
 7.000000000000000E8     7.738163940006645E-1    1.712663887402173E-1    6.842616784930034      -3.111230116742640      -2.599434307658990E-3   -1.110721869128860E-2    1.910732851017126E-1    3.667088711070043E-1
 7.010000000000000E8     7.774692976258325E-1    1.614128390009768E-1    6.816506465492150      -3.195303352678447      -2.333931164202144E-3   -1.075791792064146E-2    1.913909448020923E-1    3.665773417779578E-1
 7.020000000000000E8     7.799272407285593E-1    1.519902100395132E-1    6.817479954735406      -3.219321159374530      -2.355003436197828E-3   -1.098267319866000E-2    1.914236774070124E-1    3.667692640128711E-1
 7.030000000000000E8     7.786322413347281E-1    1.435520518567177E-1    6.777239771092558      -3.289431258541220      -2.381274871359035E-3   -1.120120144993731E-2    1.939224535086343E-1    3.656682699837130E-1
 7.040000000000000E8     7.803307015494225E-1    1.350024488346263E-1    6.767729779155010      -3.331986202748535      -2.392649162810759E-3   -1.140538239765571E-2    1.960810482519026E-1    3.654863853097095E-1
 7.050000000000000E8     7.805657141711488E-1    1.254635939834174E-1    6.744689150295170      -3.392327694237454      -2.218944680414508E-3   -1.102288153266823E-2    1.949450157618517E-1    3.645958599508222E-1
 7.060000000000000E8     7.849577538997394E-1    1.164590717704165E-1    6.740734520522323      -3.439623150689850      -2.502529229761377E-3   -1.087527735083981E-2    1.989120918555715E-1    3.613896830041872E-1
 7.070000000000000E8     7.866030012152671E-1    1.073967694722610E-1    6.716120648459475      -3.517676726396897      -2.670711394056288E-3   -1.155000995176432E-2    1.983977669244480E-1    3.622145400112503E-1
 7.080000000000000E8     7.882303678139904E-1    9.910851917662876E-2    6.690030098827861      -3.574616508860318      -2.688996604465170E-3   -1.087701589206755E-2    2.006327767726137E-1    3.626718655488035E-1
 7.090000000000000E8     7.903979943523032E-1    8.879044237597115E-2    6.679075636449711      -3.634023176360030      -2.872723764807723E-3   -1.120445348184169E-2    1.998346791294430E-1    3.604183380297676E-1
 7.100000000000000E8     7.901574751721168E-1    8.036407389482240E-2    6.667432215070378      -3.663921697993378      -3.232960935180646E-3   -1.102166258363958E-2    2.031859817201227E-1    3.596642933911106E-1
 7.110000000000000E8     7.939843210908206E-1    7.207899703874522E-2    6.668672768736529      -3.701071005091491      -2.800468925579243E-3   -1.051886252114393E-2    2.053894345291924E-1    3.580982538825764E-1
 7.120000000000000E8     7.930227461060083E-1    6.187576624532189E-2    6.634109303373632      -3.748082715704756      -2.651427594066305E-3   -1.080474075474097E-2    2.068876815343539E-1    3.574233912366069E-1
 7.130000000000000E8     7.938651215712366E-1    5.364208002338523E-2    6.614505787161219      -3.804659926624097      -2.905481759007845E-3   -1.101503122789015E-2    2.060956064318852E-1    3.594208079133865E-1
 7.140000000000000E8     7.945211495011356E-1    4.665114079202261E-2    6.609538196256003      -3.857390379392055      -2.967568058604779E-3   -1.103695701589279E-2    2.100468740503764E-1    3.572649190409350E-1
 7.150000000000000E8     7.940436044200196E-1    3.363088799663470E-2    6.574951313705510      -3.888120276724386      -2.819007207452511E-3   -1.084074228701229E-2    2.114912288431531E-1    3.523144461558060E-1
 7.160000000000000E8     7.940942712517897E-1    2.683973967893714E-2    6.540819821064587      -3.929463972339322      -3.478380066720142E-3   -1.125889662248626E-2    2.116895274777214E-1    3.532280905363355E-1
 7.170000000000000E8     7.952247925919301E-1    1.648075308717896E-2    6.521900186653245      -3.984293100379196      -3.364499823417378E-3   -1.096369511676875E-2    2.114833294308445E-1    3.522331848694836E-1
 7.180000000000000E8     7.973901762526895E-1    8.628299644598252E-3    6.483125840773124      -4.033247992460073      -3.266561575518344E-3   -1.079730602155282E-2    2.142948117908574E-1    3.526617499168136E-1
 7.190000000000000E8     7.958056596761869E-1   -5.116531964649475E-3    6.455110382131063      -4.065366551474290      -3.479429151541972E-3   -1.114713860586849E-2    2.169444068526133E-1    3.516982743676851E-1
 7.200000000000000E8     7.970829151706624E-1   -1.119810702006630E-2    6.427373401273230      -4.125386014593794      -3.609280767334890E-3   -1.125505225984633E-2    2.194733358995160E-1    3.485809938373368E-1
 7.210000000000000E8     7.939140113490852E-1   -1.875882572616360E-2    6.378587486823514      -4.159202332232719      -3.480360273246124E-3   -1.097522134673159E-2    2.189967026875500E-1    3.488995202219775E-1
 7.220000000000000E8     7.932224470876413E-1   -3.074365923504468E-2    6.348320257640961      -4.216766816337779      -3.617624386253788E-3   -1.066634500456359E-2    2.235491345653384E-1    3.472107505771333E-1
 7.230000000000000E8     7.932833046852140E-1   -4.020522578396982E-2    6.329742848143650      -4.241949571368695      -3.907128524123282E-3   -1.053163635877919E-2    2.232557788489097E-1    3.460352476316116E-1
 7.240000000000000E8     7.918527254649214E-1   -4.738248860587020E-2    6.275760517867622      -4.285941369807161      -3.558130692877983E-3   -1.083663233601197E-2    2.226055295887402E-1    3.463135079619321E-1
 7.250000000000000E8     7.911706166169863E-1   -5.683917047173333E-2    6.249338928900047      -4.337213776514844      -3.899261896210954E-3   -1.080156176317728E-2    2.244351759250130E-1    3.446920603670087E-1
 7.260000000000000E8     7.909138066284011E-1   -6.389144525666501E-2    6.232079184942160      -4.380251651110311      -4.239393475923118E-3   -1.078553470859844E-2    2.287762782788236E-1    3.424345365926469E-1
 7.270000000000000E8     7.917620380342514E-1   -7.557041762879860E-2    6.211096001438647      -4.439597921525392      -3.786807656242997E-3   -1.127304986054208E-2    2.288700800472357E-1    3.430361107424972E-1
 7.280000000000000E8     7.917971250502147E-1   -8.504120610178684E-2    6.169588086398174      -4.502299392685765      -3.918331666413194E-3   -1.066315204943409E-2    2.298309248939676E-1    3.394177205718906E-1
 7.290000000000000E8     7.909922946890608E-1   -9.276045438069133E-2    6.131707813594981      -4.555834868294358      -4.454118968299479E-3   -1.093267939947262E-2    2.312492691360465E-1    3.398485527328970E-1
 7.300000000000000E8     7.900659949745853E-1   -1.022648300516045E-1    6.084543199745587      -4.606106280320414      -3.962901012991574E-3   -1.101831885589028E-2    2.321725787154794E-1    3.398534258496479E-1
 7.310000000000000E8     7.888966869130513E-1   -1.126657080633748E-1    6.070441448591851      -4.655908269213499      -4.439599674946521E-3   -1.071043762775555E-2    2.337871930680127E-1    3.340512894285522E-1
 7.320000000000000E8     7.858331090347581E-1   -1.204945478009746E-1    6.027675175098219      -4.691897571513789      -4.315823509909222E-3   -1.092489767087006E-2    2.356976554129489E-1    3.355724958844047E-1
 7.330000000000000E8     7.867880699391308E-1   -1.272933104476061E-1    6.006241546189915      -4.738690782526171      -4.374328346663227E-3   -1.087311162901441E-2    2.369118833194835E-1    3.360182950977313E-1
 7.340000000000000E8     7.843998344626453E-1   -1.379135068953439E-1    6.011380462216900      -4.818631510025837      -4.597959992668835E-3   -1.063555215079934E-2    2.404467477500478E-1    3.344424834029277E-1
 7.350000000000000E8     7.855511102786989E-1   -1.475016742511772E-1    5.965064651412185      -4.849064155412251      -4.501051206300749E-3   -1.077453483451319E-2    2.402992420143072E-1    3.298594724216775E-1
 7.360000000000000E8     7.852717076368988E-1   -1.555780334097515E-1    5.941482513104014      -4.891886991429521      -4.526762495352850E-3   -1.067464009393450E-2    2.430455550140121E-1    3.281084528185141E-1
 7.370000000000000E8     7.824147387736509E-1   -1.645755641613474E-1    5.933687086634048      -4.960146085683399      -4.629042935163138E-3   -1.081355991865420E-2    2.428708767290289E-1    3.299033593891917E-1
 7.380000000000000E8     7.800439525514541E-1   -1.737190062149635E-1    5.921179190862537      -4.977853033781586      -4.800360230696157E-3   -1.072722555446917E-2    2.429774064877586E-1    3.289150103035270E-1
 7.390000000000000E8     7.784565750450804E-1   -1.819686586038392E-1    5.859361481163883      -5.038986748696483      -4.965431374838868E-3   -1.052938331202106E-2    2.466502845118535E-1    3.273462960495403E-1
 7.400000000000000E8     7.753023540991709E-1   -1.894806900807240E-1    5.846121987011647      -5.073343817334596      -4.664135405706949E-3   -1.080679256403366E-2    2.466530211314955E-1    3.265383623709057E-1
 7.410000000000000E8     7.744317871916435E-1   -1.981765531889150E-1    5.804663587687451      -5.113946921179793      -4.940709398992763E-3   -1.088595622359398E-2    2.484794696953853E-1    3.247597929630198E-1
 7.420000000000000E8     7.713666334389171E-1   -2.091247030942983E-1    5.779242532049444      -5.160803853789710      -5.667923865335569E-3   -1.063302340693587E-2    2.516692981159681E-1    3.240564647089079E-1
 7.430000000000000E8     7.671674472051042E-1   -2.177290688628980E-1    5.743389592415404      -5.188422929973645      -4.964127784400032E-3   -1.114459325896694E-2    2.504118167807677E-1    3.224279719047492E-1
 7.440000000000000E8     7.661607222953737E-1   -2.269916779398855E-1    5.696173104874972      -5.242464400730519      -5.000716415782924E-3   -1.054878503645305E-2    2.524874810462027E-1    3.187034016954279E-1
 7.450000000000000E8     7.610409479924778E-1   -2.372221814467979E-1    5.673606895185272      -5.284487095143540      -5.218701745049140E-3   -1.073369494872185E-2    2.560382905848633E-1    3.187138668380228E-1
 7.460000000000000E8     7.597836700454182E-1   -2.440141851269640E-1    5.630101525314118      -5.309176936633882      -5.574481640686918E-3   -1.049331812883282E-2    2.557630481602554E-1    3.178828184369997E-1
 7.470000000000000E8     7.538418776228257E-1   -2.539398320094332E-1    5.564759460517488      -5.350036608644746      -5.898303733644175E-3   -1.038596746881234E-2    2.583849708896981E-1    3.160063135506432E-1
 7.480000000000000E8     7.540419225625308E-1   -2.612395990711800E-1    5.560443201979396      -5.397887432520203      -5.519662439330522E-3   -1.059964510240508E-2    2.596796771631184E-1    3.154187373419711E-1
 7.490000000000000E8     7.502164264579441E-1   -2.704539627066982E-1    5.530385685571523      -5.430885940652135      -5.659061759044038E-3   -1.095894470085511E-2    2.598154811712937E-1    3.150984414610685E-1
 7.500000000000000E8     7.468402435097341E-1   -2.774169042252951E-1    5.444938969548724      -5.472849000135251      -5.788835810844053E-3   -1.082937636712444E-2    2.629761498732325E-1    3.112586786478065E-1
 7.510000000000000E8     7.441007153634953E-1   -2.867327835803680E-1    5.413142577612340      -5.535903598628622      -5.953243133254393E-3   -1.029907659020731E-2    2.635107818359206E-1    3.116904590803733E-1
 7.520000000000000E8     7.411716500977263E-1   -2.942449728670563E-1    5.378358434874570      -5.536579616913411      -5.687835410153049E-3   -1.043701929292029E-2    2.683785202497376E-1    3.087545773078417E-1
 7.530000000000000E8     7.359360475436695E-1   -3.044001022300519E-1    5.329333529353977      -5.610145622237507      -6.135877153026212E-3   -1.044532506669443E-2    2.662290500782170E-1    3.093606467757423E-1
 7.540000000000000E8     7.357933082091249E-1   -3.135177853753311E-1    5.297954019845894      -5.630912619746426      -6.321840723250536E-3   -1.043583602437511E-2    2.693677821232757E-1    3.086283281362130E-1
 7.550000000000000E8     7.323441166735474E-1   -3.198281297510995E-1    5.246940860796946      -5.688545089685674      -6.143761613754343E-3   -1.081281199694965E-2    2.690104919154838E-1    3.068018352415079E-1
 7.560000000000000E8     7.303812931408085E-1   -3.283075040064720E-1    5.225134415797939      -5.747730391936816      -6.402174506833922E-3   -1.108038451058482E-2    2.726463982898632E-1    3.050797041795755E-1
 7.570000000000000E8     7.254131956849251E-1   -3.377447880888013E-1    5.168420782243966      -5.779654110867036      -6.325957267463192E-3   -1.060219122490051E-2    2.730541976563222E-1    3.033828164220789E-1
 7.580000000000000E8     7.227353956154355E-1   -3.449658667005002E-1    5.139952360633788      -5.825096601072659      -6.403973586397183E-3   -1.090026323569086E-2    2.741625327827278E-1    3.022027210836465E-1
 7.590000000000000E8     7.187936511174008E-1   -3.521026429893598E-1    5.101271547762782      -5.866456452329444      -6.184434884670896E-3   -1.034634910003941E-2    2.756950935856718E-1    3.006980998464457E-1
 7.600000000000000E8     7.155377102885997E-1   -3.624280736582435E-1    5.074820088256737      -5.933095385502432      -6.464455028273362E-3   -1.057868245581477E-2    2.761528491339821E-1    2.996119373922924E-1
 7.610000000000000E8     7.120133908310020E-1   -3.692286558676660E-1    5.041825469653334      -5.976508418077223      -6.499607104631440E-3   -1.065549004913769E-2    2.797975377326777E-1    2.986126638589161E-1
 7.620000000000000E8     7.086070990138124E-1   -3.773701754177578E-1    5.000209446776057      -6.008476458164194      -6.767591400163919E-3   -1.085149528005881E-2    2.817082071922101E-1    2.961825014572673E-1
 7.630000000000000E8     7.024152005279020E-1   -3.851998808409434E-1    4.964297148885399      -6.037087637965792      -6.596929237767690E-3   -1.081056370111663E-2    2.830006612550283E-1    2.963393593019543E-1
 7.640000000000000E8     6.990229562429680E-1   -3.947536858350902E-1    4.932145028666096      -6.102636620834047      -7.061680071213624E-3   -1.048176400005917E-2    2.829077429044098E-1    2.922360183384197E-1
 7.650000000000000E8     6.928043216038214E-1   -4.019525233581971E-1    4.890237865457187      -6.144690404671759      -6.502464342403144E-3   -1.069189977935139E-2    2.841889304984894E-1    2.926281221056540E-1
 7.660000000000000E8     6.865225206434165E-1   -4.081555883260123E-1    4.858915603950774      -6.203199108362536      -6.727903140495227E-3   -9.884508270514115E-3    2.862060745953357E-1    2.902745147500206E-1
 7.670000000000000E8     6.836009803580809E-1   -4.149031057075485E-1    4.846050567111563      -6.225352153607935      -7.475711820095226E-3   -1.068176862843703E-2    2.861541283867889E-1    2.882271881743922E-1
 7.680000000000000E8     6.775878082565467E-1   -4.235172416355374E-1    4.779765466687286      -6.252976661867877      -7.379808553540848E-3   -1.043456879529749E-2    2.898981295027355E-1    2.879304489076073E-1
 7.690000000000000E8     6.756566796720777E-1   -4.320660138767598E-1    4.762726533911672      -6.311390231512001      -7.036083704385185E-3   -1.039962775072626E-2    2.896058195979360E-1    2.861312586758657E-1
 7.700000000000000E8     6.689751055231676E-1   -4.387227084152439E-1    4.713174452536032      -6.315323770851446      -7.228237005409839E-3   -1.020068431204956E-2    2.890230031051371E-1    2.820500659750175E-1
 7.710000000000000E8     6.602917891940953E-1   -4.476061147095660E-1    4.658895668147073      -6.376886715148296      -7.057518991471723E-3   -1.052745481510064E-2    2.920387029804707E-1    2.826916480013831E-1
 7.720000000000000E8     6.571477097950377E-1   -4.534297228470768E-1    4.631627444591966      -6.392456918191279      -7.487740743309865E-3   -1.025047555749585E-2    2.930361972066593E-1    2.830461327880897E-1
 7.730000000000000E8     6.542297853709598E-1   -4.617609585534797E-1    4.593834557328784      -6.444884012664671      -7.461284079088254E-3   -1.024828688438396E-2    2.962668166221790E-1    2.810592160272709E-1
 7.740000000000000E8     6.461515319237214E-1   -4.713767617718407E-1    4.524003330383042      -6.467927868276948      -7.875404339664520E-3   -9.894332974607265E-3    2.971736980788024E-1    2.775406319656378E-1
 7.750000000000000E8     6.394217999359615E-1   -4.758836876509198E-1    4.476366868494281      -6.472620107964539      -7.259704324807332E-3   -9.931207398828246E-3    2.976774171104356E-1    2.754833361571658E-1
 7.760000000000000E8     6.370162659585952E-1   -4.855229284303834E-1    4.429819891048381      -6.533222333764435      -7.857366383449282E-3   -1.038893825755531E-2    2.971597648976899E-1    2.753078312250806E-1
 7.770000000000000E8     6.324392449003376E-1   -4.920004129754544E-1    4.383509318158474      -6.534525302805704      -8.092320984542855E-3   -1.031786650409113E-2    3.005953927453877E-1    2.726716108341912E-1
 7.780000000000000E8     6.273161931081610E-1   -4.986656764317573E-1    4.336501636404482      -6.596155989827750      -7.561605475875236E-3   -1.031549917650319E-2    3.006198564706430E-1    2.742412028581036E-1
 7.790000000000000E8     6.201686184405989E-1   -5.087210268001897E-1    4.266010696604437      -6.633800139360794      -7.908728865886148E-3   -1.011521728251850E-2    3.032862558003827E-1    2.713179838862391E-1
 7.800000000000000E8     6.154761349316481E-1   -5.142398726040533E-1    4.241541658776417      -6.659407383516006      -8.201325554417173E-3   -1.020839745147935E-2    3.032132368871998E-1    2.696297383773903E-1
 7.810000000000000E8     6.099825133319656E-1   -5.211653548780898E-1    4.183325141587754      -6.691001364322307      -8.251353352185072E-3   -9.861346667795066E-3    3.029651419870479E-1    2.682054860983296E-1
 7.820000000000000E8     6.061003867242758E-1   -5.266459879379497E-1    4.137228576263264      -6.723620194403207      -8.239079088616345E-3   -9.863192461085982E-3    3.063016782503701E-1    2.670677556197138E-1
 7.830000000000000E8     5.993700918216244E-1   -5.341660985102127E-1    4.084930825373755      -6.738945760747083      -8.205830238861530E-3   -9.927694190212317E-3    3.072956022437401E-1    2.650553982722403E-1
 7.840000000000000E8     5.937475649345738E-1   -5.433863431911071E-1    4.028520621528947      -6.812517725921668      -8.121883735154628E-3   -1.007285090409747E-2    3.089779084986817E-1    2.620426794851728E-1
 7.850000000000000E8     5.875561921966613E-1   -5.498932499234225E-1    3.970268094102697      -6.855316423957832      -8.154465083570235E-3   -9.974676290343786E-3    3.109006682076246E-1    2.590232144009426E-1
 7.860000000000000E8     5.809362707352266E-1   -5.560122551821600E-1    3.929353433962315      -6.883665034266323      -8.436320421033977E-3   -9.559836344203237E-3    3.105747515563464E-1    2.579712917741688E-1
 7.870000000000000E8     5.758049632046599E-1   -5.649874210110158E-1    3.902138994883225      -6.939900158397894      -8.461834131924674E-3   -1.024889806235398E-2    3.114617494180359E-1    2.582623383775656E-1
 7.880000000000000E8     5.686404256854577E-1   -5.679381893469454E-1    3.854749065914691      -6.969637599291705      -8.707573619900816E-3   -1.011763312805064E-2    3.112012429096429E-1    2.554313032447389E-1
 7.890000000000000E8     5.606791651108094E-1   -5.731800120221098E-1    3.807836334123430      -6.999526879870849      -8.967764255761025E-3   -9.736643008870291E-3    3.128227543472021E-1    2.544834209416966E-1
 7.900000000000000E8     5.557750205715817E-1   -5.791073056170181E-1    3.771181091965473      -7.046819135221725      -8.406013307500385E-3   -1.009331810775943E-2    3.132181277647748E-1    2.505332030145230E-1
