#  HZ   S   RI   R     50.00 
! Rohde & Schwarz Vector Network Analyzer 
! Rohde-Schwarz,ZNB20-2Port,1311601062102243,3.20
! Created: UTC 10/31/2022, 10:02:42 AM
! freq[Hz]                re:S11                  im:S11                  re:S21                  im:S21                  re:S12                  im:S12                  re:S22                  im:S22
 7.000000000000000E8     7.229607485641956E-1    3.105585651930841E-2   -3.964920829074507       5.131579755341869       6.043403085228076E-3    7.505139465275115E-3    3.509363237080810E-1    1.571592784234228E-1
 7.010000000000000E8     7.213287850422767E-1   -5.019058517239817E-2   -3.463950475420793       5.484052636125436       6.833582668298283E-3    6.751597139426507E-3    3.611428953512789E-1    1.320658990074828E-1
 7.020000000000000E8     7.125590493345907E-1   -1.310437829403268E-1   -2.946112277663666       5.808180416048555       7.437409940453357E-3    5.725481118196340E-3    3.677636224827234E-1    1.066578436281714E-1
 7.030000000000000E8     6.924302208885441E-1   -2.121144440243205E-1   -2.383443556131670       6.076399565039510       8.132677628263063E-3    5.329900729456985E-3    3.746446235478446E-1    7.928579826701644E-2
 7.040000000000000E8     6.639344971350083E-1   -2.894424237982274E-1   -1.797212719975080       6.286553568706212       8.253941893332031E-3    4.845758657047792E-3    3.775795854233996E-1    5.327212969010695E-2
 7.050000000000000E8     6.275253818142593E-1   -3.597364331169487E-1   -1.212983646854735       6.435611962271028       8.945126755904762E-3    4.070399144609497E-3    3.783362328916788E-1    2.452811843718367E-2
 7.060000000000000E8     5.827839492341592E-1   -4.292176623467847E-1   -6.034222595082726E-1    6.540647151339777       8.758581777752555E-3    3.490801448856041E-3    3.794991737281743E-1   -3.440431153906024E-3
 7.070000000000000E8     5.306203183028433E-1   -4.915876630208145E-1    1.702258747884786E-2    6.577839230683350       9.701389092643549E-3    2.230643818371415E-3    3.755805593510502E-1   -3.050085552273801E-2
 7.080000000000000E8     4.719828693829657E-1   -5.493354002049238E-1    6.371874747981303E-1    6.557384365212600       9.587696450261430E-3    1.339240701724720E-3    3.713871585959331E-1   -5.799339501061473E-2
 7.090000000000000E8     4.077556449479965E-1   -5.996395956035991E-1    1.256909941707592       6.485647984536236       9.790642321462819E-3    3.270776661655717E-4    3.646564932980040E-1   -8.606570853235770E-2
 7.100000000000000E8     3.345626950953615E-1   -6.427537650787885E-1    1.870388783737739       6.341607826820877       9.154547548915691E-3   -4.859991410468446E-4    3.545091960117006E-1   -1.125137612638417E-1
 7.110000000000000E8     2.614540520245645E-1   -6.775757349717618E-1    2.448337247199599       6.156680366423288       9.729761139465162E-3   -1.065825227444257E-3    3.432758126549280E-1   -1.372289547501375E-1
 7.120000000000000E8     1.832186616104544E-1   -7.032492515758497E-1    3.026365030765004       5.908041706333376       9.461155941903590E-3   -1.913890648748810E-3    3.288269668658845E-1   -1.624104860452587E-1
 7.130000000000000E8     1.030734615271842E-1   -7.193379318381945E-1    3.562715041812518       5.597635991524001       9.095795936156758E-3   -2.485798992034435E-3    3.137708800742232E-1   -1.872263708909771E-1
 7.140000000000000E8     2.078808265394698E-2   -7.259456020370365E-1    4.072052403058591       5.231007106581774       8.854350191887832E-3   -3.465907872242096E-3    2.962428230149183E-1   -2.108686881301332E-1
 7.150000000000000E8    -6.012989886596203E-2   -7.239416768680750E-1    4.538050490272922       4.837892905257422       8.364900631858281E-3   -4.371550177681139E-3    2.772510322068871E-1   -2.309451290838451E-1
 7.160000000000000E8    -1.432753909808935E-1   -7.104901640957703E-1    4.965854323823393       4.373230322668039       8.174425856180481E-3   -5.309868255748133E-3    2.576515191936278E-1   -2.498557530646153E-1
 7.170000000000000E8    -2.230542885422848E-1   -6.891911294148104E-1    5.355780044309460       3.888296426415147       7.473549910590498E-3   -6.058126514992562E-3    2.340006119002253E-1   -2.673654250226501E-1
 7.180000000000000E8    -2.974128429103154E-1   -6.594304873739967E-1    5.676607597685888       3.371257487581955       7.090297543275829E-3   -6.808422612334369E-3    2.114908702529979E-1   -2.841274963554711E-1
 7.190000000000000E8    -3.701805276296056E-1   -6.225212050351948E-1    5.957380455205616       2.820114154665716       6.630384335936239E-3   -7.498176338707118E-3    1.853712048378180E-1   -2.997338958297217E-1
 7.200000000000000E8    -4.366549137790126E-1   -5.761661078632287E-1    6.185718587659518       2.241697011562196       5.827303075495130E-3   -7.994692042756294E-3    1.595980161444582E-1   -3.097658809883211E-1
 7.210000000000000E8    -4.979232864907266E-1   -5.217551235379557E-1    6.356639260279645       1.643533426790321       4.797878309771431E-3   -8.552961853850953E-3    1.321491242654219E-1   -3.221365049622698E-1
 7.220000000000000E8    -5.527682077281888E-1   -4.630620806014730E-1    6.470464244377852       1.047407986750299       4.631162141358141E-3   -9.207561355276945E-3    1.065361853317829E-1   -3.296206742619759E-1
 7.230000000000000E8    -6.012739370208979E-1   -3.981720565298701E-1    6.528312007226775       4.312324360523230E-1    3.439188631507471E-3   -8.916314565690229E-3    7.741978205755237E-2   -3.342626513972183E-1
 7.240000000000000E8    -6.418733322345388E-1   -3.283978807733124E-1    6.534674428342466      -1.750893637631891E-1    2.669058007195743E-3   -9.739842537176994E-3    5.041275843098502E-2   -3.365801539176330E-1
 7.250000000000000E8    -6.755924010677941E-1   -2.545712145486106E-1    6.477165297907733      -7.863107088190665E-1    1.853491614106727E-3   -9.849328647608927E-3    2.018130318444062E-2   -3.376787181470968E-1
 7.260000000000000E8    -6.974009328151300E-1   -1.788842250925011E-1    6.362496930009201      -1.388618972983821       6.213999005633501E-4   -9.503673422600660E-3   -8.300453812940700E-3   -3.366778960840646E-1
 7.270000000000000E8    -7.133221680590650E-1   -1.027653215838037E-1    6.207223582819420      -1.967925862977013       2.916523362793021E-4   -9.851022274009991E-3   -3.642729820558144E-2   -3.331443974649400E-1
 7.280000000000000E8    -7.198316777085788E-1   -2.183359469290554E-2    5.988762094856670      -2.537152445602843      -9.362057978680430E-4   -9.601469710233028E-3   -6.447525546204529E-2   -3.274657777938820E-1
 7.290000000000000E8    -7.193238302701599E-1    5.705000737459760E-2    5.733831445293902      -3.084327020348605      -1.667221288307789E-3   -1.021586535688896E-2   -9.090602595432866E-2   -3.197873579950992E-1
 7.300000000000000E8    -7.077598807632313E-1    1.354173519451781E-1    5.416206377527839      -3.603608252022282      -2.719739089405126E-3   -9.555847986083063E-3   -1.190858157580356E-1   -3.106693628555705E-1
 7.310000000000000E8    -6.892712858540547E-1    2.135594086559147E-1    5.060829385759888      -4.090085269642359      -3.763488854707892E-3   -9.334831538573698E-3   -1.461498022884003E-1   -2.963224785464796E-1
 7.320000000000000E8    -6.604934166812190E-1    2.876694826352611E-1    4.661820558434867      -4.544232679314240      -4.594327384176871E-3   -9.143283629050156E-3   -1.681873944521975E-1   -2.829118401262686E-1
 7.330000000000000E8    -6.269168513873128E-1    3.556153951720121E-1    4.235031078657038      -4.957148289299636      -5.504801212931017E-3   -8.755972134232350E-3   -1.921785771912798E-1   -2.677972418071375E-1
 7.340000000000000E8    -5.840058854278480E-1    4.223545757015398E-1    3.761873334103649      -5.334398149379791      -6.577096334084348E-3   -8.115802121734302E-3   -2.116723918695449E-1   -2.497980279338286E-1
 7.350000000000000E8    -5.352043761818748E-1    4.820979381831632E-1    3.266267167376897      -5.664925421460635      -6.856484968812747E-3   -7.615303375306070E-3   -2.341924575048772E-1   -2.302248011813890E-1
 7.360000000000000E8    -4.788374699739231E-1    5.378490061185108E-1    2.719827039638108      -5.950251129363613      -7.880196683276233E-3   -6.926981096583776E-3   -2.521648696316254E-1   -2.095712902083388E-1
 7.370000000000000E8    -4.180750741981349E-1    5.875834366153821E-1    2.173024139274031      -6.189252287890527      -8.437657966734862E-3   -6.025427377054941E-3   -2.701261075796834E-1   -1.880106098915806E-1
 7.380000000000000E8    -3.529372851593561E-1    6.288437627490125E-1    1.605504547556957      -6.370334072043043      -9.317304615571922E-3   -5.391445125416395E-3   -2.859460945302347E-1   -1.650105915405724E-1
 7.390000000000000E8    -2.819889587891050E-1    6.627912374117813E-1    1.013103290777240      -6.490196052173039      -9.518658462127157E-3   -4.503267895370379E-3   -2.992230567575840E-1   -1.397503238858697E-1
 7.400000000000000E8    -2.098719755457820E-1    6.899957044783915E-1    4.219616155477599E-1   -6.578467962609552      -9.983526614218330E-3   -4.418354276820090E-3   -3.102117162503096E-1   -1.135186160462708E-1
 7.410000000000000E8    -1.315843489415892E-1    7.084911635089240E-1   -1.941539678162983E-1   -6.597195701071664      -1.012908271413840E-2   -2.923764493187728E-3   -3.207960618006500E-1   -8.757599559083706E-2
 7.420000000000000E8    -5.540966194802985E-2    7.171282576825877E-1   -7.900071339377392E-1   -6.550133188504103      -1.036554502224679E-2   -2.009498495991562E-3   -3.275350371852473E-1   -6.177709384385725E-2
 7.430000000000000E8     2.308098432833078E-2    7.174353817804995E-1   -1.388800242879199      -6.458782991789580      -1.062895721643772E-2   -5.257817886625747E-4   -3.319492801562008E-1   -3.468873030075275E-2
 7.440000000000000E8     1.002050035014394E-1    7.105898314442042E-1   -1.981628104951279      -6.308570848120004      -1.080423775819318E-2    2.118899222904199E-4   -3.365895013485074E-1   -6.724913613752297E-3
 7.450000000000000E8     1.770089482632608E-1    6.965142532866382E-1   -2.555252345061617      -6.116058135224842      -1.063048655259386E-2    1.216202089877903E-3   -3.370801460236795E-1    2.091625005248659E-2
 7.460000000000000E8     2.511598915808936E-1    6.738360884476587E-1   -3.110481711182727      -5.863884351668061      -9.867453720240095E-3    2.409266688339829E-3   -3.370931380983441E-1    5.015083139144962E-2
 7.470000000000000E8     3.226809499428466E-1    6.408615708521856E-1   -3.632350397051212      -5.543337795785062      -1.014904363169082E-2    3.231255878596267E-3   -3.353818941961542E-1    7.677792889733465E-2
 7.480000000000000E8     3.912072038699019E-1    6.014018259491628E-1   -4.150474874839864      -5.182617820760186      -9.876614635659513E-3    4.174960148837241E-3   -3.284972790492596E-1    1.034698261160108E-1
 7.490000000000000E8     4.554055190182985E-1    5.563139648993244E-1   -4.620440596887466      -4.783450251028418      -9.502250531092929E-3    5.111436174521959E-3   -3.218970588438874E-1    1.306437356503671E-1
 7.500000000000000E8     5.137512893926048E-1    5.017850679777488E-1   -5.059286551015461      -4.319600751173089      -8.998794020651058E-3    6.022383263153075E-3   -3.125028229137737E-1    1.574452893687065E-1
 7.510000000000000E8     5.651001114482506E-1    4.447003056599985E-1   -5.441394488258512      -3.840889459716575      -7.705981478124881E-3    6.387994621956218E-3   -3.026360277605974E-1    1.813611763958871E-1
 7.520000000000000E8     6.108384656251600E-1    3.786391825715050E-1   -5.793962045639048      -3.305625114946161      -7.171111156954026E-3    7.307361502027589E-3   -2.894364424974648E-1    2.066541312249254E-1
 7.530000000000000E8     6.482189364696421E-1    3.081537752358875E-1   -6.078494102495086      -2.745914802265564      -6.994003666704747E-3    8.042171505990963E-3   -2.729055934373188E-1    2.278269917378662E-1
 7.540000000000000E8     6.790639620445242E-1    2.355372030272806E-1   -6.321600302892088      -2.160431348771720      -5.655609028827538E-3    8.673275101523908E-3   -2.571709943226224E-1    2.517920420057397E-1
 7.550000000000000E8     7.014645006027842E-1    1.600975871825013E-1   -6.506823264008964      -1.553547150207667      -4.849781964969832E-3    8.978062334870852E-3   -2.398796832776399E-1    2.730453099354786E-1
 7.560000000000000E8     7.162261390342869E-1    8.172480111919900E-2   -6.646935925276504      -9.240746999444818E-1   -3.763290836533244E-3    9.748285756375609E-3   -2.185661428897158E-1    2.928907890859631E-1
 7.570000000000000E8     7.198799447510117E-1    1.526757217314968E-3   -6.706913043340347      -2.935052839268729E-1   -3.116708427491198E-3    9.893673609456127E-3   -1.984370171838134E-1    3.093893971827560E-1
 7.580000000000000E8     7.171982393707921E-1   -7.634404666556321E-2   -6.720413079867972       3.374011742020637E-1   -2.739278078842080E-3    9.989817737293905E-3   -1.762418263787107E-1    3.258461526437285E-1
 7.590000000000000E8     7.042438193889197E-1   -1.567890317435492E-1   -6.670398063902045       9.793136004306158E-1   -1.318584834704112E-3    1.029182476034056E-2   -1.520196634366900E-1    3.390470802302509E-1
 7.600000000000000E8     6.821547086022375E-1   -2.326213613822987E-1   -6.553918649665728       1.601959147542072      -4.906090847541960E-4    1.054594749456737E-2   -1.263210393791684E-1    3.515313474933938E-1
 7.610000000000000E8     6.531027914139084E-1   -3.105099044778823E-1   -6.389086789060422       2.229567205673947       1.750083976200976E-4    1.064318737507195E-2   -1.004109425351868E-1    3.622496201164602E-1
 7.620000000000000E8     6.143199537645806E-1   -3.801630706086818E-1   -6.160790402926367       2.832010889073914       1.292954243659997E-3    1.004556305243861E-2   -7.502727248158374E-2    3.693436456624033E-1
 7.630000000000000E8     5.679921684954412E-1   -4.467486523984472E-1   -5.862464324098418       3.405254887846077       2.157740905733558E-3    9.697302184756115E-3   -4.857644424216185E-2    3.766609395380759E-1
 7.640000000000000E8     5.149605185831875E-1   -5.068568695976471E-1   -5.520944549910143       3.943339322720450       2.689170779298516E-3    9.732978234089510E-3   -2.182633992933953E-2    3.815575375550748E-1
 7.650000000000000E8     4.541584316393635E-1   -5.626147741731634E-1   -5.129003166313698       4.455781186712937       4.071015094879972E-3    9.501971128613122E-3    5.295206292775054E-3    3.824294458883578E-1
 7.660000000000000E8     3.890816511324667E-1   -6.073670463589715E-1   -4.688962325045233       4.902215689934517       4.569683801981255E-3    8.946981705284490E-3    3.446147942661578E-2    3.823145097658404E-1
 7.670000000000000E8     3.167086405984987E-1   -6.482706410228944E-1   -4.197391513974307       5.334497649981745       5.447645595074431E-3    8.634381496032774E-3    6.136956706842710E-2    3.805582119079811E-1
 7.680000000000000E8     2.409201000811395E-1   -6.803067099988074E-1   -3.669861234719371       5.706355073316507       6.093429725090552E-3    7.702778777018979E-3    8.805488577871841E-2    3.762301245220607E-1
 7.690000000000000E8     1.649995791839092E-1   -7.028418141741132E-1   -3.122830404344536       6.015220366072684       7.044082945266833E-3    7.532585290886002E-3    1.145242043379016E-1    3.688905244137838E-1
 7.700000000000000E8     8.507019226207410E-2   -7.161763249737078E-1   -2.542098616405633       6.264623447196483       7.708767860453988E-3    7.012015248878189E-3    1.422561923203714E-1    3.622966535703828E-1
 7.710000000000000E8     4.019576411612837E-3   -7.211283492695398E-1   -1.940170790028852       6.466776770425714       8.123289825861845E-3    6.130204005370163E-3    1.670204481794650E-1    3.519134883662760E-1
 7.720000000000000E8    -7.878900990031928E-2   -7.171509124664724E-1   -1.309063098035151       6.609021468016943       8.509333166231824E-3    5.830053454852375E-3    1.910498476146135E-1    3.393767851301966E-1
 7.730000000000000E8    -1.566762848175882E-1   -7.023603203047385E-1   -6.882903757518809E-1    6.680749771247167       9.082685257300393E-3    5.046577292180099E-3    2.144424939701354E-1    3.251529897005267E-1
 7.740000000000000E8    -2.341001096807461E-1   -6.817753126860839E-1   -6.652845537421441E-2    6.696782659170267       9.592807589679652E-3    3.988969869968783E-3    2.366816545035588E-1    3.086183334327274E-1
 7.750000000000000E8    -3.106631834159808E-1   -6.516701034771718E-1    5.646999746658978E-1    6.662290347507766       1.003232452892111E-2    3.339683276420601E-3    2.565645738070415E-1    2.911946449286174E-1
 7.760000000000000E8    -3.798967329697405E-1   -6.133874119505522E-1    1.179521536072411       6.553235789379412       1.010995329236010E-2    2.003745061857809E-3    2.776393252481331E-1    2.710318324271913E-1
 7.770000000000000E8    -4.468121100453961E-1   -5.660489434267707E-1    1.792037720569253       6.392182563781514       1.058035865440683E-2    9.120285335111884E-4    2.956603169592533E-1    2.524815851619476E-1
 7.780000000000000E8    -5.069360127873241E-1   -5.149882727414425E-1    2.362506183998763       6.189740180775025       1.056852763158863E-2    2.949504166856006E-4    3.106163992202715E-1    2.308338434194026E-1
 7.790000000000000E8    -5.616761873743070E-1   -4.543356495629989E-1    2.935065240690295       5.919955202404111       1.048949068191064E-2   -5.156899976126171E-4    3.253229853208955E-1    2.079966916392101E-1
 7.800000000000000E8    -6.090085046039155E-1   -3.905745815726182E-1    3.458797763073104       5.602302676890019       1.083851990462569E-2   -1.436489719489610E-3    3.387943910654654E-1    1.833104534057045E-1
 7.810000000000000E8    -6.480549322524894E-1   -3.211264879339180E-1    3.954177668193865       5.251603364883906       1.035136158331073E-2   -2.578524168924939E-3    3.496995421473949E-1    1.588049537811231E-1
 7.820000000000000E8    -6.778199351767938E-1   -2.484178725564165E-1    4.404830695153708       4.855941710417473       9.973606066129280E-3   -3.329548964168516E-3    3.591062735496009E-1    1.334485897779141E-1
 7.830000000000000E8    -7.032306204980761E-1   -1.716004274438798E-1    4.840766025959192       4.413398999495617       9.606437971113170E-3   -4.286248983275188E-3    3.655387500323996E-1    1.082852577035744E-1
 7.840000000000000E8    -7.180353486441750E-1   -9.515935566878310E-2    5.213570930216021       3.961169794150957       9.998331913719022E-3   -5.228196833054397E-3    3.708961028912479E-1    8.080060949594269E-2
 7.850000000000000E8    -7.231419031829207E-1   -1.492893375214931E-2    5.549137127796308       3.445320516785291       9.084265205218236E-3   -6.249606509722867E-3    3.742335803511531E-1    5.529823964404250E-2
 7.860000000000000E8    -7.203715743908022E-1    6.414086973393647E-2    5.838523647664708       2.922822231766379       8.526649824952482E-3   -7.253225991363553E-3    3.750474195127133E-1    2.790248093159924E-2
 7.870000000000000E8    -7.091631327536514E-1    1.420815879549983E-1    6.074014085267280       2.382303997218789       7.827920911342472E-3   -7.793379571116176E-3    3.749623308262187E-1    1.782625076792961E-3
 7.880000000000000E8    -6.888858929073584E-1    2.190097801420235E-1    6.262333621261567       1.814955951327883       6.887165238778302E-3   -8.494403036904158E-3    3.714609418780752E-1   -2.489876705622663E-2
 7.890000000000000E8    -6.610508763398635E-1    2.913027180961935E-1    6.407710694293910       1.246000827555321       6.291429799527110E-3   -9.239688263619544E-3    3.666998717124009E-1   -5.139406977335698E-2
 7.900000000000000E8    -6.256709746158967E-1    3.608469385840418E-1    6.490358597937089       6.667684802684166E-1    5.082670356909769E-3   -1.009995566100928E-2    3.589713218622241E-1   -7.789329542050058E-2
